!  1-Port S-parameters saved by WinCal
! VAR MeasName=S-Parameters (CALIBRATED_DATA) read from VNA (N5227B)
! VAR MeasDate=10/18/2022 10:12:39 AM
! VAR NAME=Patch_yagi_LCP2
! VAR FILENAME=Patch_yagi_LCP2.S1P
! VAR DATE=10/18/2022 10:12:39 AM
! VAR PHYS_PORTS=1
! VAR ObjTypeName=DATASET
! VAR IndexType=Frequency
!
# Hz S DB R 50
500000000.000 -1.4734718397E-001 -2.0046568866E+001 
586875000.000 -1.9770497591E-001 -2.5594049052E+001 
673750000.000 -5.3194126181E-001 -3.1209615847E+001 
760625000.000 -7.5589160152E-001 -4.0535934839E+001 
847500000.000 -3.4978929718E+000 -3.6120027377E+001 
934375000.000 -4.4460407423E+000 -3.2706845469E+001 
1021250000.000 -2.6111788224E+000 -2.4085773638E+001 
1108125000.000 -3.3206913176E+000 -2.4245995624E+001 
1195000000.000 -2.6792819086E+000 -2.6753528890E+001 
1281875000.000 -2.3351779464E+000 -3.2391250331E+001 
1368750000.000 -2.9302918888E+000 -3.5505357325E+001 
1455625000.000 -3.6300852900E+000 -3.1413079708E+001 
1542500000.000 -2.1781980048E+000 -2.6795050611E+001 
1629375000.000 -1.6889449910E+000 -2.9714879224E+001 
1716250000.000 -1.0040276982E+000 -3.2718961926E+001 
1803125000.000 -7.7254159587E-001 -3.8444835267E+001 
1890000000.000 -6.2644984297E-001 -4.1702264632E+001 
1976875000.000 -4.3461661211E-001 -4.5735427746E+001 
2063750000.000 -3.3771971649E-001 -4.9863636665E+001 
2150625000.000 -3.3197525871E-001 -5.4059354312E+001 
2237500000.000 -3.4609728080E-001 -5.7909133785E+001 
2324375000.000 -4.1788249102E-001 -6.2030483124E+001 
2411250000.000 -5.0016879325E-001 -6.4691697426E+001 
2498125000.000 -4.7329397718E-001 -6.8586287615E+001 
2585000000.000 -7.4042808114E-001 -7.2496027449E+001 
2671875000.000 -1.0185369473E+000 -7.4475083762E+001 
2758750000.000 -7.7435603492E-001 -7.7153625650E+001 
2845625000.000 -1.1470030482E+000 -8.1908575806E+001 
2932500000.000 -1.4297281080E+000 -8.1123440798E+001 
3019375000.000 -1.1626108282E+000 -8.2801208412E+001 
3106250000.000 -1.0772355354E+000 -8.5451371806E+001 
3193125000.000 -8.5293005428E-001 -8.8253583916E+001 
3280000000.000 -7.6089725499E-001 -9.1246509309E+001 
3366875000.000 -6.3672892359E-001 -9.5194382329E+001 
3453750000.000 -6.1238795207E-001 -9.8623568082E+001 
3540625000.000 -5.1775908910E-001 -1.0233099239E+002 
3627500000.000 -5.0786357629E-001 -1.0617387667E+002 
3714375000.000 -4.9673779569E-001 -1.0964697647E+002 
3801250000.000 -4.4581300388E-001 -1.1328216321E+002 
3888125000.000 -3.9268270793E-001 -1.1719478676E+002 
3975000000.000 -3.6610988912E-001 -1.2124057417E+002 
4061875000.000 -3.5845928411E-001 -1.2524687839E+002 
4148750000.000 -3.5090473841E-001 -1.2933682613E+002 
4235625000.000 -3.5364209861E-001 -1.3345885874E+002 
4322500000.000 -3.6304675440E-001 -1.3760391087E+002 
4409375000.000 -3.7010004123E-001 -1.4182166890E+002 
4496250000.000 -3.8500251994E-001 -1.4612113003E+002 
4583125000.000 -4.1172418044E-001 -1.5047027453E+002 
4670000000.000 -4.4921879744E-001 -1.5488363961E+002 
4756875000.000 -5.0528730596E-001 -1.5938728416E+002 
4843750000.000 -5.9179965515E-001 -1.6388608107E+002 
4930625000.000 -7.1092274078E-001 -1.6829080667E+002 
5017500000.000 -8.6224094567E-001 -1.7245299074E+002 
5104375000.000 -1.0209004536E+000 -1.7619283495E+002 
5191250000.000 -1.1397910668E+000 -1.7946512760E+002 
5278125000.000 -1.1912980705E+000 +1.7738368988E+002 
5365000000.000 -1.1473437744E+000 +1.7425099088E+002 
5451875000.000 -1.0560191710E+000 +1.7062541000E+002 
5538750000.000 -9.7323194690E-001 +1.6669752186E+002 
5625625000.000 -9.0419642129E-001 +1.6256509505E+002 
5712500000.000 -8.3394178211E-001 +1.5836559878E+002 
5799375000.000 -7.8709195875E-001 +1.5404725090E+002 
5886250000.000 -7.3638117862E-001 +1.4975043252E+002 
5973125000.000 -6.9065706186E-001 +1.4535253884E+002 
6060000000.000 -6.5979606875E-001 +1.4096657268E+002 
6146875000.000 -6.2673180606E-001 +1.3656664326E+002 
6233750000.000 -6.0096978246E-001 +1.3216282684E+002 
6320625000.000 -5.8546716552E-001 +1.2778966581E+002 
6407500000.000 -5.6769864708E-001 +1.2347474344E+002 
6494375000.000 -5.5090388138E-001 +1.1915029523E+002 
6581250000.000 -5.3635414433E-001 +1.1483757477E+002 
6668125000.000 -5.2328175963E-001 +1.1057309762E+002 
6755000000.000 -5.1176533403E-001 +1.0631397148E+002 
6841875000.000 -5.0539150794E-001 +1.0207049307E+002 
6928750000.000 -5.0037083668E-001 +9.7902146407E+001 
7015625000.000 -4.9452945038E-001 +9.3768947968E+001 
7102500000.000 -4.9019006524E-001 +8.9664555999E+001 
7189375000.000 -4.8313825660E-001 +8.5601263354E+001 
7276250000.000 -4.7211076959E-001 +8.1587320210E+001 
7363125000.000 -4.6029585297E-001 +7.7524187031E+001 
7450000000.000 -4.5723575257E-001 +7.3495355478E+001 
7536875000.000 -4.5507836016E-001 +6.9531591071E+001 
7623750000.000 -4.4955149424E-001 +6.5596452810E+001 
7710625000.000 -4.4705748178E-001 +6.1687551573E+001 
7797500000.000 -4.4009719391E-001 +5.7797220084E+001 
7884375000.000 -4.3584635172E-001 +5.3884657018E+001 
7971250000.000 -4.4089137516E-001 +5.0017635111E+001 
8058125000.000 -4.4109215851E-001 +4.6244775531E+001 
8145000000.000 -4.3397672879E-001 +4.2427663512E+001 
8231875000.000 -4.3279050883E-001 +3.8597321920E+001 
8318750000.000 -4.3661449136E-001 +3.4814377028E+001 
8405625000.000 -4.3642073725E-001 +3.1016045796E+001 
8492500000.000 -4.4152721755E-001 +2.7241671567E+001 
8579375000.000 -4.4678536218E-001 +2.3487638058E+001 
8666250000.000 -4.5392375210E-001 +1.9720714237E+001 
8753125000.000 -4.6547854033E-001 +1.5969986213E+001 
8840000000.000 -4.7025684510E-001 +1.2277237601E+001 
8926875000.000 -4.7137510041E-001 +8.4852524613E+000 
9013750000.000 -4.9020233198E-001 +4.6768700624E+000 
9100625000.000 -5.1648997790E-001 +1.0108569833E+000 
9187500000.000 -5.2584221401E-001 -2.7048706779E+000 
9274375000.000 -5.3174888723E-001 -6.4370197648E+000 
9361250000.000 -5.4049368336E-001 -1.0231167573E+001 
9448125000.000 -5.5224828054E-001 -1.4060100734E+001 
9535000000.000 -5.7315348553E-001 -1.7927049890E+001 
9621875000.000 -5.9940908716E-001 -2.1746804739E+001 
9708750000.000 -6.1726324362E-001 -2.5587033052E+001 
9795625000.000 -6.3583059510E-001 -2.9513050994E+001 
9882500000.000 -6.6554231106E-001 -3.3469672974E+001 
9969375000.000 -7.0255108388E-001 -3.7468175887E+001 
10056250000.000 -7.3739873477E-001 -4.1482224072E+001 
10143125000.000 -7.7905640943E-001 -4.5507773076E+001 
10230000000.000 -8.3186592037E-001 -4.9598090231E+001 
10316875000.000 -8.9069921041E-001 -5.3692269246E+001 
10403750000.000 -9.5105356650E-001 -5.7824949464E+001 
10490625000.000 -1.0282020517E+000 -6.2008725587E+001 
10577500000.000 -1.1186129825E+000 -6.6110801033E+001 
10664375000.000 -1.2037512174E+000 -7.0228306116E+001 
10751250000.000 -1.3069587954E+000 -7.4317673405E+001 
10838125000.000 -1.4103725819E+000 -7.8408824645E+001 
10925000000.000 -1.5130855015E+000 -8.2461582821E+001 
11011875000.000 -1.6206726673E+000 -8.6468324139E+001 
11098750000.000 -1.7364506829E+000 -9.0469303789E+001 
11185625000.000 -1.8611343222E+000 -9.4411682392E+001 
11272500000.000 -1.9633228942E+000 -9.8208989065E+001 
11359375000.000 -2.0512917298E+000 -1.0211326236E+002 
11446250000.000 -2.1387058379E+000 -1.0609903601E+002 
11533125000.000 -2.2405583749E+000 -1.1004831098E+002 
11620000000.000 -2.3398386775E+000 -1.1406662558E+002 
11706875000.000 -2.4669867632E+000 -1.1777995596E+002 
11793750000.000 -2.5301356368E+000 -1.2159568039E+002 
11880625000.000 -2.6133740985E+000 -1.2547549446E+002 
11967500000.000 -2.6934486726E+000 -1.2931362091E+002 
12054375000.000 -2.7587540482E+000 -1.3313151719E+002 
12141250000.000 -2.8160221802E+000 -1.3702913483E+002 
12228125000.000 -2.8778216123E+000 -1.4082504937E+002 
12315000000.000 -2.9234763098E+000 -1.4485423620E+002 
12401875000.000 -2.9789102280E+000 -1.4894396811E+002 
12488750000.000 -3.0624335726E+000 -1.5300567352E+002 
12575625000.000 -3.1586342452E+000 -1.5688231995E+002 
12662500000.000 -3.2307250073E+000 -1.6052383313E+002 
12749375000.000 -3.2558983909E+000 -1.6428432379E+002 
12836250000.000 -3.2774127825E+000 -1.6834899649E+002 
12923125000.000 -3.3402870577E+000 -1.7245338619E+002 
13010000000.000 -3.4041521978E+000 -1.7644589522E+002 
13096875000.000 -3.4709003291E+000 +1.7958779618E+002 
13183750000.000 -3.5543932912E+000 +1.7549546245E+002 
13270625000.000 -3.6790361141E+000 +1.7145931899E+002 
13357500000.000 -3.7853811059E+000 +1.6781595818E+002 
13444375000.000 -3.8852366863E+000 +1.6407084338E+002 
13531250000.000 -4.0148448226E+000 +1.6032451612E+002 
13618125000.000 -4.1218502213E+000 +1.5673354833E+002 
13705000000.000 -4.2687329905E+000 +1.5322788028E+002 
13791875000.000 -4.3640020767E+000 +1.4987547681E+002 
13878750000.000 -4.5029648674E+000 +1.4620844786E+002 
13965625000.000 -4.6996809168E+000 +1.4278399407E+002 
14052500000.000 -4.8888071870E+000 +1.3975186982E+002 
14139375000.000 -5.0835515227E+000 +1.3691310452E+002 
14226250000.000 -5.2708394747E+000 +1.3434186744E+002 
14313125000.000 -5.4191362396E+000 +1.3191716113E+002 
14400000000.000 -5.5822007962E+000 +1.2923856207E+002 
14486875000.000 -5.8193227647E+000 +1.2712581750E+002 
14573750000.000 -5.9592889830E+000 +1.2566208758E+002 
14660625000.000 -6.0719513968E+000 +1.2398387974E+002 
14747500000.000 -6.1300655203E+000 +1.2235607818E+002 
14834375000.000 -6.2417780014E+000 +1.2093696674E+002 
14921250000.000 -6.2674111903E+000 +1.1954730210E+002 
15008125000.000 -6.2897874680E+000 +1.1820883638E+002 
15095000000.000 -6.2968677702E+000 +1.1689587831E+002 
15181875000.000 -6.1990702739E+000 +1.1581072815E+002 
15268750000.000 -6.0579064670E+000 +1.1401211533E+002 
15355625000.000 -5.9798208660E+000 +1.1180425555E+002 
15442500000.000 -5.9601744709E+000 +1.0976792024E+002 
15529375000.000 -5.9091508644E+000 +1.0816139814E+002 
15616250000.000 -5.7680051504E+000 +1.0593486916E+002 
15703125000.000 -5.7214280799E+000 +1.0332257192E+002 
15790000000.000 -5.7300537570E+000 +1.0087462888E+002 
15876875000.000 -5.7147392487E+000 +9.8441214440E+001 
15963750000.000 -5.7970934784E+000 +9.5870636055E+001 
16050625000.000 -5.8412875838E+000 +9.4040429874E+001 
16137500000.000 -5.8941721184E+000 +9.1495605316E+001 
16224375000.000 -6.0366076305E+000 +8.9400463275E+001 
16311250000.000 -6.2041745647E+000 +8.7528049222E+001 
16398125000.000 -6.3694474433E+000 +8.6163448574E+001 
16485000000.000 -6.4833477004E+000 +8.4741725348E+001 
16571875000.000 -6.6469307701E+000 +8.3348500160E+001 
16658750000.000 -6.8487566154E+000 +8.2099214293E+001 
16745625000.000 -7.0963148301E+000 +8.1599003519E+001 
16832500000.000 -7.2117474709E+000 +8.1885001528E+001 
16919375000.000 -7.4139043277E+000 +8.2180956717E+001 
17006250000.000 -7.4124767291E+000 +8.2752298966E+001 
17093125000.000 -7.4650764548E+000 +8.2852942509E+001 
17180000000.000 -7.4956433609E+000 +8.4144698308E+001 
17266875000.000 -7.3648508023E+000 +8.4774648795E+001 
17353750000.000 -7.3167070843E+000 +8.5325102069E+001 
17440625000.000 -7.2061634845E+000 +8.7344536137E+001 
17527500000.000 -6.7743010320E+000 +8.8595209873E+001 
17614375000.000 -6.3780605513E+000 +8.8766498293E+001 
17701250000.000 -5.9836068883E+000 +8.8749901765E+001 
17788125000.000 -5.5651569466E+000 +8.8327260752E+001 
17875000000.000 -5.1464657064E+000 +8.7382576201E+001 
17961875000.000 -4.7575199957E+000 +8.6578224645E+001 
18048750000.000 -4.2799572079E+000 +8.5469494932E+001 
18135625000.000 -3.8411794534E+000 +8.3521750050E+001 
18222500000.000 -3.4456355399E+000 +8.1510702537E+001 
18309375000.000 -3.0558305501E+000 +7.9181464965E+001 
18396250000.000 -2.7282733330E+000 +7.6594919613E+001 
18483125000.000 -2.4218609333E+000 +7.4105432550E+001 
18570000000.000 -2.1130056478E+000 +7.1340923721E+001 
18656875000.000 -1.8635056241E+000 +6.8417501938E+001 
18743750000.000 -1.6447738820E+000 +6.5588059322E+001 
18830625000.000 -1.4351826810E+000 +6.2656887031E+001 
18917500000.000 -1.2659068853E+000 +5.9705656614E+001 
19004375000.000 -1.1229038762E+000 +5.6845259318E+001 
19091250000.000 -9.8121049361E-001 +5.3998654095E+001 
19178125000.000 -8.6222415796E-001 +5.1121059205E+001 
19265000000.000 -7.6349200681E-001 +4.8263891842E+001 
19351875000.000 -6.7905060926E-001 +4.5457615193E+001 
19438750000.000 -6.0961565119E-001 +4.2698913391E+001 
19525625000.000 -5.5376067768E-001 +3.9993713396E+001 
19612500000.000 -5.0581764267E-001 +3.7333226472E+001 
19699375000.000 -4.6514057370E-001 +3.4710164558E+001 
19786250000.000 -4.3038227014E-001 +3.2124421925E+001 
19873125000.000 -4.0713873392E-001 +2.9572348659E+001 
19960000000.000 -3.8977153428E-001 +2.7102420089E+001 
20046875000.000 -3.7210746660E-001 +2.4673576411E+001 
20133750000.000 -3.6040240690E-001 +2.2256054336E+001 
20220625000.000 -3.4994008540E-001 +1.9900034941E+001 
20307500000.000 -3.3929871362E-001 +1.7539914186E+001 
20394375000.000 -3.3646565995E-001 +1.5187147323E+001 
20481250000.000 -3.3469777205E-001 +1.2925674445E+001 
20568125000.000 -3.2212856389E-001 +1.0680663304E+001 
20655000000.000 -3.1036302295E-001 +8.3672228854E+000 
20741875000.000 -3.0793123291E-001 +6.0809479126E+000 
20828750000.000 -3.0041544611E-001 +3.8065425582E+000 
20915625000.000 -2.9817424539E-001 +1.5055672844E+000 
21002500000.000 -3.0048677193E-001 -7.3788747987E-001 
21089375000.000 -2.9746163056E-001 -2.9622845921E+000 
21176250000.000 -2.9962128958E-001 -5.2477100086E+000 
21263125000.000 -3.0552734308E-001 -7.4669794727E+000 
21350000000.000 -3.0298127195E-001 -9.6708598624E+000 
21436875000.000 -2.9843519601E-001 -1.1927341431E+001 
21523750000.000 -3.0072702589E-001 -1.4187315497E+001 
21610625000.000 -2.9749966160E-001 -1.6425640824E+001 
21697500000.000 -2.9386266421E-001 -1.8707883244E+001 
21784375000.000 -2.9489570043E-001 -2.0975299379E+001 
21871250000.000 -2.9412390847E-001 -2.3257012681E+001 
21958125000.000 -2.9428254692E-001 -2.5535121472E+001 
22045000000.000 -2.8807619300E-001 -2.7828483638E+001 
22131875000.000 -2.8646319914E-001 -3.0189610316E+001 
22218750000.000 -2.8496081358E-001 -3.2570524261E+001 
22305625000.000 -2.9017523267E-001 -3.4951075219E+001 
22392500000.000 -2.9797919540E-001 -3.7314042391E+001 
22479375000.000 -3.0057342361E-001 -3.9661219989E+001 
22566250000.000 -3.0000607568E-001 -4.2053308634E+001 
22653125000.000 -3.0142029583E-001 -4.4425598087E+001 
22740000000.000 -2.9961690304E-001 -4.6861623897E+001 
22826875000.000 -2.9422166038E-001 -4.9297737019E+001 
22913750000.000 -2.8885482733E-001 -5.1814699930E+001 
23000625000.000 -2.9383829311E-001 -5.4321264814E+001 
23087500000.000 -2.9361071429E-001 -5.6818035142E+001 
23174375000.000 -2.9116875562E-001 -5.9409312569E+001 
23261250000.000 -2.9670387641E-001 -6.1990110436E+001 
23348125000.000 -2.9634001043E-001 -6.4532722889E+001 
23435000000.000 -2.9383063193E-001 -6.7153806319E+001 
23521875000.000 -2.9851414857E-001 -6.9785589358E+001 
23608750000.000 -2.9596782417E-001 -7.2399361155E+001 
23695625000.000 -2.8917994984E-001 -7.5111388078E+001 
23782500000.000 -2.9634929288E-001 -7.7866818054E+001 
23869375000.000 -2.9862996017E-001 -8.0542071312E+001 
23956250000.000 -2.9386132926E-001 -8.3304786471E+001 
24043125000.000 -2.9684464866E-001 -8.6109826124E+001 
24130000000.000 -3.0310388610E-001 -8.8886502333E+001 
24216875000.000 -2.9832020430E-001 -9.1691162093E+001 
24303750000.000 -3.0574503924E-001 -9.4611737374E+001 
24390625000.000 -3.1535570221E-001 -9.7420726127E+001 
24477500000.000 -3.0892208855E-001 -1.0027378309E+002 
24564375000.000 -3.1398124696E-001 -1.0323330586E+002 
24651250000.000 -3.2653474643E-001 -1.0611231070E+002 
24738125000.000 -3.2012761915E-001 -1.0901031928E+002 
24825000000.000 -3.2467021897E-001 -1.1204094793E+002 
24911875000.000 -3.3917410966E-001 -1.1496991193E+002 
24998750000.000 -3.3448420402E-001 -1.1792458268E+002 
25085625000.000 -3.4058596910E-001 -1.2098119523E+002 
25172500000.000 -3.5351690359E-001 -1.2396381469E+002 
25259375000.000 -3.5570153514E-001 -1.2695557643E+002 
25346250000.000 -3.6291533538E-001 -1.3001424234E+002 
25433125000.000 -3.7290430093E-001 -1.3300657245E+002 
25520000000.000 -3.7505765187E-001 -1.3600736119E+002 
25606875000.000 -3.8000345360E-001 -1.3907151369E+002 
25693750000.000 -3.8870556182E-001 -1.4209908824E+002 
25780625000.000 -3.9075270489E-001 -1.4512138639E+002 
25867500000.000 -3.9500645228E-001 -1.4820581408E+002 
25954375000.000 -4.0364843418E-001 -1.5122625625E+002 
26041250000.000 -4.0658034734E-001 -1.5423361417E+002 
26128125000.000 -4.0967566933E-001 -1.5729322018E+002 
26215000000.000 -4.1163833393E-001 -1.6029943762E+002 
26301875000.000 -4.1127048294E-001 -1.6336015227E+002 
26388750000.000 -4.1645210194E-001 -1.6639372654E+002 
26475625000.000 -4.1466207749E-001 -1.6941517752E+002 
26562500000.000 -4.1414573311E-001 -1.7245645680E+002 
26649375000.000 -4.2545001323E-001 -1.7549854618E+002 
26736250000.000 -4.3305394291E-001 -1.7849173229E+002 
26823125000.000 -4.4283282354E-001 +1.7849726055E+002 
26910000000.000 -4.5826061995E-001 +1.7553101141E+002 
26996875000.000 -4.6443403486E-001 +1.7262922183E+002 
27083750000.000 -4.7169149931E-001 +1.6968161506E+002 
27170625000.000 -4.8103516725E-001 +1.6672187929E+002 
27257500000.000 -4.9224019285E-001 +1.6384281121E+002 
27344375000.000 -5.0054079578E-001 +1.6093670603E+002 
27431250000.000 -5.1763838287E-001 +1.5804279040E+002 
27518125000.000 -5.2965289068E-001 +1.5524464333E+002 
27605000000.000 -5.2985166189E-001 +1.5240868138E+002 
27691875000.000 -5.4493845006E-001 +1.4954448362E+002 
27778750000.000 -5.6086230644E-001 +1.4677120714E+002 
27865625000.000 -5.6228473907E-001 +1.4402505151E+002 
27952500000.000 -5.7680359837E-001 +1.4120025404E+002 
28039375000.000 -5.9342273284E-001 +1.3850027990E+002 
28126250000.000 -5.9519864170E-001 +1.3577765026E+002 
28213125000.000 -6.1512404901E-001 +1.3300680144E+002 
28300000000.000 -6.3169378781E-001 +1.3039740335E+002 
28386875000.000 -6.3166759361E-001 +1.2771732235E+002 
28473750000.000 -6.4261057221E-001 +1.2499759470E+002 
28560625000.000 -6.5881533836E-001 +1.2234370375E+002 
28647500000.000 -6.6626408355E-001 +1.1967711568E+002 
28734375000.000 -6.8579664869E-001 +1.1699081215E+002 
28821250000.000 -7.0166343821E-001 +1.1435373510E+002 
28908125000.000 -7.1291535417E-001 +1.1170287885E+002 
28995000000.000 -7.3480141357E-001 +1.0903688392E+002 
29081875000.000 -7.5194002503E-001 +1.0640091684E+002 
29168750000.000 -7.7197765994E-001 +1.0371069377E+002 
29255625000.000 -8.0864912529E-001 +1.0104991167E+002 
29342500000.000 -8.3235619408E-001 +9.8447994638E+001 
29429375000.000 -8.6590759753E-001 +9.5723997094E+001 
29516250000.000 -9.1096166191E-001 +9.3087393369E+001 
29603125000.000 -9.4159887094E-001 +9.0423625214E+001 
29690000000.000 -9.8655085468E-001 +8.7632871695E+001 
29776875000.000 -1.0547692649E+000 +8.4939957308E+001 
29863750000.000 -1.1036866572E+000 +8.2289270897E+001 
29950625000.000 -1.1667349692E+000 +7.9488588784E+001 
30037500000.000 -1.2443793655E+000 +7.6761768368E+001 
30124375000.000 -1.3103713991E+000 +7.4014900783E+001 
30211250000.000 -1.3907634121E+000 +7.1056623031E+001 
30298125000.000 -1.5035723276E+000 +6.8153595550E+001 
30385000000.000 -1.6114996738E+000 +6.5258253212E+001 
30471875000.000 -1.7496240726E+000 +6.2193140122E+001 
30558750000.000 -1.9150426471E+000 +5.9229191826E+001 
30645625000.000 -2.0844787054E+000 +5.6309515863E+001 
30732500000.000 -2.2741644130E+000 +5.3224334749E+001 
30819375000.000 -2.5105645199E+000 +5.0164475161E+001 
30906250000.000 -2.7579607434E+000 +4.7207391700E+001 
30993125000.000 -3.0330690441E+000 +4.4118355716E+001 
31080000000.000 -3.3744375872E+000 +4.1042196245E+001 
31166875000.000 -3.7367801462E+000 +3.8150061671E+001 
31253750000.000 -4.1333458931E+000 +3.5115339093E+001 
31340625000.000 -4.6199454752E+000 +3.1979832840E+001 
31427500000.000 -5.2364673277E+000 +2.8941634928E+001 
31514375000.000 -6.0275583483E+000 +2.6719102839E+001 
31601250000.000 -6.8701458242E+000 +2.5759095310E+001 
