!  1-Port S-parameters saved by WinCal
! VAR MeasName=S-Parameters (CALIBRATED_DATA) read from VNA (N5227B)
! VAR MeasDate=10/18/2022 10:11:34 AM
! VAR NAME=Patch_yagi_LCP
! VAR FILENAME=Patch_yagi_LCP.S1P
! VAR DATE=10/18/2022 10:11:34 AM
! VAR PHYS_PORTS=1
! VAR ObjTypeName=DATASET
! VAR IndexType=Frequency
!
# Hz S DB R 50
500000000.000 -1.6012650041E-001 -2.0060278978E+001 
586875000.000 -1.9485595355E-001 -2.5684894531E+001 
673750000.000 -5.7070449876E-001 -3.1452089798E+001 
760625000.000 -7.8320899449E-001 -4.0820656551E+001 
847500000.000 -3.6152007730E+000 -3.5541266205E+001 
934375000.000 -4.5950327012E+000 -3.1966426441E+001 
1021250000.000 -2.4861001147E+000 -2.4146226119E+001 
1108125000.000 -3.1612781322E+000 -2.4697662611E+001 
1195000000.000 -2.6058654220E+000 -2.7426057935E+001 
1281875000.000 -2.3224252915E+000 -3.2727019167E+001 
1368750000.000 -3.0324004340E+000 -3.6020659250E+001 
1455625000.000 -3.7306131176E+000 -3.0356056612E+001 
1542500000.000 -2.2265570685E+000 -2.7308348043E+001 
1629375000.000 -1.6674436850E+000 -2.9278231513E+001 
1716250000.000 -1.0207898309E+000 -3.2814211511E+001 
1803125000.000 -7.7165099948E-001 -3.8322557812E+001 
1890000000.000 -6.1457724065E-001 -4.1775510780E+001 
1976875000.000 -4.2927296258E-001 -4.5890720749E+001 
2063750000.000 -3.4541906239E-001 -5.0017979785E+001 
2150625000.000 -3.3257907963E-001 -5.4183289874E+001 
2237500000.000 -3.6133677523E-001 -5.8029288615E+001 
2324375000.000 -4.2437282239E-001 -6.2128835606E+001 
2411250000.000 -5.1311911259E-001 -6.4897726297E+001 
2498125000.000 -4.8357619909E-001 -6.8716032556E+001 
2585000000.000 -7.4263818682E-001 -7.2803428149E+001 
2671875000.000 -1.0262175288E+000 -7.4712227598E+001 
2758750000.000 -7.9158634389E-001 -7.7476444590E+001 
2845625000.000 -1.1595539804E+000 -8.2032608352E+001 
2932500000.000 -1.4413324713E+000 -8.1342753982E+001 
3019375000.000 -1.1669480156E+000 -8.3174693104E+001 
3106250000.000 -1.0827566706E+000 -8.5802122314E+001 
3193125000.000 -8.6167973964E-001 -8.8615219886E+001 
3280000000.000 -7.6471851761E-001 -9.1631341346E+001 
3366875000.000 -6.4425267152E-001 -9.5582636596E+001 
3453750000.000 -6.2424923903E-001 -9.9049230033E+001 
3540625000.000 -5.2508419638E-001 -1.0278228651E+002 
3627500000.000 -5.1571353589E-001 -1.0665172607E+002 
3714375000.000 -5.0454122249E-001 -1.1014162273E+002 
3801250000.000 -4.5286314303E-001 -1.1382529935E+002 
3888125000.000 -4.0040459943E-001 -1.1776220127E+002 
3975000000.000 -3.7426539474E-001 -1.2183081773E+002 
4061875000.000 -3.6668170591E-001 -1.2587290248E+002 
4148750000.000 -3.5890081917E-001 -1.2999066745E+002 
4235625000.000 -3.6207413876E-001 -1.3414232815E+002 
4322500000.000 -3.7235539846E-001 -1.3831445046E+002 
4409375000.000 -3.7787101984E-001 -1.4255556720E+002 
4496250000.000 -3.9419460339E-001 -1.4687383936E+002 
4583125000.000 -4.2032375320E-001 -1.5124830876E+002 
4670000000.000 -4.5738899258E-001 -1.5568576107E+002 
4756875000.000 -5.1340258629E-001 -1.6020539489E+002 
4843750000.000 -5.9992603977E-001 -1.6472293187E+002 
4930625000.000 -7.1875736254E-001 -1.6914129890E+002 
5017500000.000 -8.6986377102E-001 -1.7333444340E+002 
5104375000.000 -1.0287962919E+000 -1.7704652274E+002 
5191250000.000 -1.1479143744E+000 +1.7963849226E+002 
5278125000.000 -1.1963916481E+000 +1.7653331175E+002 
5365000000.000 -1.1459616584E+000 +1.7340403499E+002 
5451875000.000 -1.0571464712E+000 +1.6972890569E+002 
5538750000.000 -9.6614384673E-001 +1.6582527053E+002 
5625625000.000 -8.9658306629E-001 +1.6162550809E+002 
5712500000.000 -8.3112564837E-001 +1.5741378783E+002 
5799375000.000 -7.8697497105E-001 +1.5310778578E+002 
5886250000.000 -7.4027110379E-001 +1.4884671751E+002 
5973125000.000 -6.9023859722E-001 +1.4446975400E+002 
6060000000.000 -6.6101784539E-001 +1.4009850088E+002 
6146875000.000 -6.2713208839E-001 +1.3573904573E+002 
6233750000.000 -6.0059526585E-001 +1.3134999880E+002 
6320625000.000 -5.8571539438E-001 +1.2701012708E+002 
6407500000.000 -5.6797351817E-001 +1.2272155588E+002 
6494375000.000 -5.5097231558E-001 +1.1843664984E+002 
6581250000.000 -5.3544304171E-001 +1.1416096892E+002 
6668125000.000 -5.2222414784E-001 +1.0992676776E+002 
6755000000.000 -5.1121388711E-001 +1.0570799712E+002 
6841875000.000 -5.0462348767E-001 +1.0151055950E+002 
6928750000.000 -4.9974745039E-001 +9.7386558930E+001 
7015625000.000 -4.9349979407E-001 +9.3298532929E+001 
7102500000.000 -4.8813409951E-001 +8.9241850439E+001 
7189375000.000 -4.8094018666E-001 +8.5219999206E+001 
7276250000.000 -4.6976423057E-001 +8.1242687446E+001 
7363125000.000 -4.5867908700E-001 +7.7232554333E+001 
7450000000.000 -4.5485657800E-001 +7.3245346721E+001 
7536875000.000 -4.5345714174E-001 +6.9316142313E+001 
7623750000.000 -4.4774853815E-001 +6.5424918370E+001 
7710625000.000 -4.4542799169E-001 +6.1558295029E+001 
7797500000.000 -4.3945668201E-001 +5.7713567300E+001 
7884375000.000 -4.3507249978E-001 +5.3842794962E+001 
7971250000.000 -4.4017083879E-001 +5.0018934069E+001 
8058125000.000 -4.4012767493E-001 +4.6276950793E+001 
8145000000.000 -4.3301038465E-001 +4.2501705580E+001 
8231875000.000 -4.3198595240E-001 +3.8705333442E+001 
8318750000.000 -4.3600783625E-001 +3.4948278887E+001 
8405625000.000 -4.3685372785E-001 +3.1178460142E+001 
8492500000.000 -4.4283839013E-001 +2.7434200752E+001 
8579375000.000 -4.4947647940E-001 +2.3703585003E+001 
8666250000.000 -4.5643958986E-001 +1.9965510743E+001 
8753125000.000 -4.6965200435E-001 +1.6245902743E+001 
8840000000.000 -4.7449840518E-001 +1.2575615804E+001 
8926875000.000 -4.7475597382E-001 +8.8005352652E+000 
9013750000.000 -4.9300997015E-001 +5.0071726384E+000 
9100625000.000 -5.1464466871E-001 +1.3010100503E+000 
9187500000.000 -5.3095587315E-001 -2.4220817207E+000 
9274375000.000 -5.4029584535E-001 -6.1482166308E+000 
9361250000.000 -5.5106920427E-001 -9.9333275704E+000 
9448125000.000 -5.6426253444E-001 -1.3764329448E+001 
9535000000.000 -5.8534145612E-001 -1.7635418052E+001 
9621875000.000 -6.1212047331E-001 -2.1480806520E+001 
9708750000.000 -6.3373899386E-001 -2.5354003958E+001 
9795625000.000 -6.5655713745E-001 -2.9296164741E+001 
9882500000.000 -6.8643473940E-001 -3.3278396560E+001 
9969375000.000 -7.2865502745E-001 -3.7309188870E+001 
10056250000.000 -7.6552485017E-001 -4.1363306184E+001 
10143125000.000 -8.1157393578E-001 -4.5430911448E+001 
10230000000.000 -8.6899693716E-001 -4.9547477410E+001 
10316875000.000 -9.2817807822E-001 -5.3688855209E+001 
10403750000.000 -9.9060580111E-001 -5.7882010587E+001 
10490625000.000 -1.0745057243E+000 -6.2135307243E+001 
10577500000.000 -1.1740692862E+000 -6.6298812425E+001 
10664375000.000 -1.2645447334E+000 -7.0459810496E+001 
10751250000.000 -1.3703179924E+000 -7.4589373386E+001 
10838125000.000 -1.4794052692E+000 -7.8756286854E+001 
10925000000.000 -1.5904562784E+000 -8.2869413803E+001 
11011875000.000 -1.7046984573E+000 -8.6965012516E+001 
11098750000.000 -1.8312153962E+000 -9.1039036150E+001 
11185625000.000 -1.9639185870E+000 -9.4981875879E+001 
11272500000.000 -2.0699090915E+000 -9.8817298918E+001 
11359375000.000 -2.1590527996E+000 -1.0280014191E+002 
11446250000.000 -2.2590568438E+000 -1.0680218216E+002 
11533125000.000 -2.3608917530E+000 -1.1079124727E+002 
11620000000.000 -2.4530065357E+000 -1.1482725264E+002 
11706875000.000 -2.5851342319E+000 -1.1865539599E+002 
11793750000.000 -2.6518540114E+000 -1.2248348123E+002 
11880625000.000 -2.7293258574E+000 -1.2645058356E+002 
11967500000.000 -2.8152886683E+000 -1.3035401106E+002 
12054375000.000 -2.8856106482E+000 -1.3418936264E+002 
12141250000.000 -2.9354546385E+000 -1.3810112323E+002 
12228125000.000 -2.9836284061E+000 -1.4203077897E+002 
12315000000.000 -3.0392061850E+000 -1.4611539836E+002 
12401875000.000 -3.0858822863E+000 -1.5021012320E+002 
12488750000.000 -3.1641203264E+000 -1.5434472945E+002 
12575625000.000 -3.2518892955E+000 -1.5833780287E+002 
12662500000.000 -3.3194368646E+000 -1.6206421069E+002 
12749375000.000 -3.3467603599E+000 -1.6591913516E+002 
12836250000.000 -3.3705778889E+000 -1.7001700189E+002 
12923125000.000 -3.4221636698E+000 -1.7420282228E+002 
13010000000.000 -3.5005886004E+000 -1.7830439577E+002 
13096875000.000 -3.5775015910E+000 +1.7774363772E+002 
13183750000.000 -3.6606697827E+000 +1.7375806091E+002 
13270625000.000 -3.7584707122E+000 +1.6974656937E+002 
13357500000.000 -3.8600457632E+000 +1.6595615584E+002 
13444375000.000 -3.9667758203E+000 +1.6217490005E+002 
13531250000.000 -4.0871150378E+000 +1.5846487743E+002 
13618125000.000 -4.1942570175E+000 +1.5484604118E+002 
13705000000.000 -4.3327636184E+000 +1.5135123659E+002 
13791875000.000 -4.4299942771E+000 +1.4800077006E+002 
13878750000.000 -4.5550451607E+000 +1.4432736382E+002 
13965625000.000 -4.7465325382E+000 +1.4090689831E+002 
14052500000.000 -4.9363606866E+000 +1.3783841478E+002 
14139375000.000 -5.1258511257E+000 +1.3487624357E+002 
14226250000.000 -5.3392402322E+000 +1.3232024156E+002 
14313125000.000 -5.5080599780E+000 +1.2980488725E+002 
14400000000.000 -5.7162013788E+000 +1.2758663456E+002 
14486875000.000 -5.9062178878E+000 +1.2569493714E+002 
14573750000.000 -6.0302616568E+000 +1.2421134195E+002 
14660625000.000 -6.1545930887E+000 +1.2257745818E+002 
14747500000.000 -6.2203227784E+000 +1.2113682949E+002 
14834375000.000 -6.3254288341E+000 +1.1991893980E+002 
14921250000.000 -6.3178872557E+000 +1.1880853961E+002 
15008125000.000 -6.2786299184E+000 +1.1737793986E+002 
15095000000.000 -6.2702754427E+000 +1.1598161469E+002 
15181875000.000 -6.2036974282E+000 +1.1466567433E+002 
15268750000.000 -6.0783021559E+000 +1.1315880728E+002 
15355625000.000 -5.9953164848E+000 +1.1117831540E+002 
15442500000.000 -5.9348518597E+000 +1.0944225158E+002 
15529375000.000 -5.8152593557E+000 +1.0761736924E+002 
15616250000.000 -5.6922136905E+000 +1.0523906085E+002 
15703125000.000 -5.6467417873E+000 +1.0271044441E+002 
15790000000.000 -5.6404654408E+000 +1.0046496467E+002 
15876875000.000 -5.6070822075E+000 +9.7906565922E+001 
15963750000.000 -5.6889064632E+000 +9.5425229440E+001 
16050625000.000 -5.7277904395E+000 +9.3533211253E+001 
16137500000.000 -5.7775616840E+000 +9.1156312967E+001 
16224375000.000 -5.8892738641E+000 +8.9210757304E+001 
16311250000.000 -6.0212734426E+000 +8.7091227882E+001 
16398125000.000 -6.1911993252E+000 +8.5718534592E+001 
16485000000.000 -6.2978988853E+000 +8.4333899829E+001 
16571875000.000 -6.4516306472E+000 +8.2948221829E+001 
16658750000.000 -6.6241952855E+000 +8.1668812694E+001 
16745625000.000 -6.8663190223E+000 +8.1061517322E+001 
16832500000.000 -6.9828237548E+000 +8.1222028301E+001 
16919375000.000 -7.1824223187E+000 +8.1311383731E+001 
17006250000.000 -7.2271105532E+000 +8.1792350245E+001 
17093125000.000 -7.3311657060E+000 +8.2465122883E+001 
17180000000.000 -7.2589895476E+000 +8.3995305286E+001 
17266875000.000 -7.0760985653E+000 +8.4362162156E+001 
17353750000.000 -7.0121695986E+000 +8.4612576202E+001 
17440625000.000 -6.8883883587E+000 +8.6274602431E+001 
17527500000.000 -6.5081563874E+000 +8.7123265990E+001 
17614375000.000 -6.1458838203E+000 +8.7367943878E+001 
17701250000.000 -5.7607467576E+000 +8.7377390922E+001 
17788125000.000 -5.3438896210E+000 +8.6800486396E+001 
17875000000.000 -4.9765061686E+000 +8.5814586054E+001 
17961875000.000 -4.6046129461E+000 +8.5028128623E+001 
18048750000.000 -4.1544158823E+000 +8.3942956248E+001 
18135625000.000 -3.7321218009E+000 +8.2115397701E+001 
18222500000.000 -3.3537242724E+000 +8.0149916408E+001 
18309375000.000 -2.9718914369E+000 +7.7907265967E+001 
18396250000.000 -2.6587502935E+000 +7.5350787560E+001 
18483125000.000 -2.3652734302E+000 +7.2939038518E+001 
18570000000.000 -2.0641642974E+000 +7.0267120172E+001 
18656875000.000 -1.8261875033E+000 +6.7405639862E+001 
18743750000.000 -1.6149629447E+000 +6.4638243050E+001 
18830625000.000 -1.4161119584E+000 +6.1793017977E+001 
18917500000.000 -1.2528929589E+000 +5.8929551529E+001 
19004375000.000 -1.1114671096E+000 +5.6151654754E+001 
19091250000.000 -9.7223321288E-001 +5.3382502603E+001 
19178125000.000 -8.5466344006E-001 +5.0571096537E+001 
19265000000.000 -7.5590459288E-001 +4.7771555483E+001 
19351875000.000 -6.7334975424E-001 +4.5005158957E+001 
19438750000.000 -6.0592043682E-001 +4.2302713090E+001 
19525625000.000 -5.4931639619E-001 +3.9632564533E+001 
19612500000.000 -5.0436143618E-001 +3.7000233409E+001 
19699375000.000 -4.6686117222E-001 +3.4426441713E+001 
19786250000.000 -4.3258120417E-001 +3.1894587239E+001 
19873125000.000 -4.0915513394E-001 +2.9386597500E+001 
19960000000.000 -3.8977885846E-001 +2.6946117196E+001 
20046875000.000 -3.7325705341E-001 +2.4543204634E+001 
20133750000.000 -3.6137441120E-001 +2.2152569152E+001 
20220625000.000 -3.5120810532E-001 +1.9818146125E+001 
20307500000.000 -3.4137550718E-001 +1.7484352180E+001 
20394375000.000 -3.3746119571E-001 +1.5159256276E+001 
20481250000.000 -3.3546999623E-001 +1.2905159890E+001 
20568125000.000 -3.2455693496E-001 +1.0660333437E+001 
20655000000.000 -3.1408420814E-001 +8.3744693998E+000 
20741875000.000 -3.1087730978E-001 +6.1066066608E+000 
20828750000.000 -3.0338537269E-001 +3.8440007600E+000 
20915625000.000 -3.0142311256E-001 +1.5555577711E+000 
21002500000.000 -3.0323951528E-001 -6.9138120733E-001 
21089375000.000 -3.0186432163E-001 -2.9153428139E+000 
21176250000.000 -3.0337981784E-001 -5.1845089053E+000 
21263125000.000 -3.0794518288E-001 -7.4206341343E+000 
21350000000.000 -3.0770289245E-001 -9.6355188433E+000 
21436875000.000 -3.0221516113E-001 -1.1890830065E+001 
21523750000.000 -3.0473015400E-001 -1.4167478512E+001 
21610625000.000 -3.0456244552E-001 -1.6419890997E+001 
21697500000.000 -3.0092003185E-001 -1.8698171400E+001 
21784375000.000 -3.0152820063E-001 -2.0981744852E+001 
21871250000.000 -3.0402467977E-001 -2.3280145030E+001 
21958125000.000 -3.0120139348E-001 -2.5556665062E+001 
22045000000.000 -2.9355437684E-001 -2.7897389849E+001 
22131875000.000 -2.9415889388E-001 -3.0299520777E+001 
22218750000.000 -2.9433334763E-001 -3.2699020984E+001 
22305625000.000 -2.9830810711E-001 -3.5105819012E+001 
22392500000.000 -3.0681742670E-001 -3.7513622134E+001 
22479375000.000 -3.1090356558E-001 -3.9892798956E+001 
22566250000.000 -3.0910955478E-001 -4.2318320853E+001 
22653125000.000 -3.1057762558E-001 -4.4751006112E+001 
22740000000.000 -3.1046927071E-001 -4.7230584091E+001 
22826875000.000 -3.0529895241E-001 -4.9717354803E+001 
22913750000.000 -3.0193862200E-001 -5.2291780448E+001 
23000625000.000 -3.0851836323E-001 -5.4843998088E+001 
23087500000.000 -3.0770260549E-001 -5.7396278687E+001 
23174375000.000 -3.0564417622E-001 -6.0043540526E+001 
23261250000.000 -3.1226939232E-001 -6.2693023057E+001 
23348125000.000 -3.1409616153E-001 -6.5296516068E+001 
23435000000.000 -3.1170367768E-001 -6.7982070001E+001 
23521875000.000 -3.1609070681E-001 -7.0681375939E+001 
23608750000.000 -3.1451769516E-001 -7.3366722337E+001 
23695625000.000 -3.0774214597E-001 -7.6143692905E+001 
23782500000.000 -3.1491347521E-001 -7.8980071748E+001 
23869375000.000 -3.1873536902E-001 -8.1737985396E+001 
23956250000.000 -3.1479947560E-001 -8.4560420596E+001 
24043125000.000 -3.1877180229E-001 -8.7452721322E+001 
24130000000.000 -3.2640613436E-001 -9.0314823595E+001 
24216875000.000 -3.2211950581E-001 -9.3181603974E+001 
24303750000.000 -3.2872402226E-001 -9.6187849961E+001 
24390625000.000 -3.4009991585E-001 -9.9091696218E+001 
24477500000.000 -3.3583673944E-001 -1.0200675834E+002 
24564375000.000 -3.3809216313E-001 -1.0505422291E+002 
24651250000.000 -3.5201913743E-001 -1.0803032321E+002 
24738125000.000 -3.4822285140E-001 -1.1099903012E+002 
24825000000.000 -3.5121381043E-001 -1.1411241146E+002 
24911875000.000 -3.6644140955E-001 -1.1713538456E+002 
24998750000.000 -3.6393167601E-001 -1.2015658401E+002 
25085625000.000 -3.6855991026E-001 -1.2328230164E+002 
25172500000.000 -3.8165165224E-001 -1.2635860377E+002 
25259375000.000 -3.8608544243E-001 -1.2942550378E+002 
25346250000.000 -3.9359392587E-001 -1.3253790591E+002 
25433125000.000 -4.0261070527E-001 -1.3561042260E+002 
25520000000.000 -4.0693587196E-001 -1.3868247233E+002 
25606875000.000 -4.1131506537E-001 -1.4179700465E+002 
25693750000.000 -4.1810561100E-001 -1.4488665044E+002 
25780625000.000 -4.2156792220E-001 -1.4797189266E+002 
25867500000.000 -4.2579500485E-001 -1.5109812560E+002 
25954375000.000 -4.3233176774E-001 -1.5417073246E+002 
26041250000.000 -4.3594367447E-001 -1.5723872858E+002 
26128125000.000 -4.3996366356E-001 -1.6032847870E+002 
26215000000.000 -4.4035053568E-001 -1.6336726375E+002 
26301875000.000 -4.3875833689E-001 -1.6646760828E+002 
26388750000.000 -4.4489481124E-001 -1.6953456995E+002 
26475625000.000 -4.4306879360E-001 -1.7256740623E+002 
26562500000.000 -4.4205727044E-001 -1.7566265079E+002 
26649375000.000 -4.5342979346E-001 -1.7872572746E+002 
26736250000.000 -4.6168612657E-001 +1.7827292366E+002 
26823125000.000 -4.6885641364E-001 +1.7526870775E+002 
26910000000.000 -4.8325186143E-001 +1.7230132684E+002 
26996875000.000 -4.9030617838E-001 +1.6940253711E+002 
27083750000.000 -4.9615327444E-001 +1.6647312900E+002 
27170625000.000 -5.0341520483E-001 +1.6352151121E+002 
27257500000.000 -5.1597965496E-001 +1.6065747212E+002 
27344375000.000 -5.2212557819E-001 +1.5778994230E+002 
27431250000.000 -5.3710446357E-001 +1.5491538183E+002 
27518125000.000 -5.4991868625E-001 +1.5214978847E+002 
27605000000.000 -5.4913392199E-001 +1.4936619797E+002 
27691875000.000 -5.6061445428E-001 +1.4652458292E+002 
27778750000.000 -5.7788220617E-001 +1.4379176739E+002 
27865625000.000 -5.7820257519E-001 +1.4110603476E+002 
27952500000.000 -5.8983486819E-001 +1.3831251378E+002 
28039375000.000 -6.0751568780E-001 +1.3564932451E+002 
28126250000.000 -6.0895930205E-001 +1.3299769869E+002 
28213125000.000 -6.2536519263E-001 +1.3027885669E+002 
28300000000.000 -6.4257377516E-001 +1.2771980895E+002 
28386875000.000 -6.4219526636E-001 +1.2511021995E+002 
28473750000.000 -6.5112948925E-001 +1.2245449587E+002 
28560625000.000 -6.6554637268E-001 +1.1985064150E+002 
28647500000.000 -6.7285551776E-001 +1.1725974661E+002 
28734375000.000 -6.9110193039E-001 +1.1464255840E+002 
28821250000.000 -7.0456620484E-001 +1.1207569062E+002 
28908125000.000 -7.1648118586E-001 +1.0948686627E+002 
28995000000.000 -7.3779487174E-001 +1.0689712807E+002 
29081875000.000 -7.5388611138E-001 +1.0433961762E+002 
29168750000.000 -7.7454412233E-001 +1.0172965350E+002 
29255625000.000 -8.0941659085E-001 +9.9145275567E+001 
29342500000.000 -8.3101845985E-001 +9.6610570003E+001 
29429375000.000 -8.6428858188E-001 +9.3962781893E+001 
29516250000.000 -9.0915439318E-001 +9.1417265077E+001 
29603125000.000 -9.4085575674E-001 +8.8845262301E+001 
29690000000.000 -9.8702252323E-001 +8.6164848681E+001 
29776875000.000 -1.0526057105E+000 +8.3578319927E+001 
29863750000.000 -1.0981936873E+000 +8.1035487309E+001 
29950625000.000 -1.1578150783E+000 +7.8334408821E+001 
30037500000.000 -1.2339311167E+000 +7.5712636414E+001 
30124375000.000 -1.2987970148E+000 +7.3098412629E+001 
30211250000.000 -1.3727963013E+000 +7.0251790512E+001 
30298125000.000 -1.4831507569E+000 +6.7460859301E+001 
30385000000.000 -1.5863328228E+000 +6.4713536658E+001 
30471875000.000 -1.7169079756E+000 +6.1776252769E+001 
30558750000.000 -1.8698403600E+000 +5.8959411392E+001 
30645625000.000 -2.0318063582E+000 +5.6143235430E+001 
30732500000.000 -2.2022130840E+000 +5.3232912221E+001 
30819375000.000 -2.4182146490E+000 +5.0250164860E+001 
30906250000.000 -2.6443261402E+000 +4.7369905065E+001 
30993125000.000 -2.9037455000E+000 +4.4311093382E+001 
31080000000.000 -3.2265926536E+000 +4.1289818534E+001 
31166875000.000 -3.5797146901E+000 +3.8380023315E+001 
31253750000.000 -3.9823396985E+000 +3.5466955532E+001 
31340625000.000 -4.4553105143E+000 +3.2566717300E+001 
31427500000.000 -5.0249904798E+000 +2.9862393415E+001 
31514375000.000 -5.7098691434E+000 +2.7722515771E+001 
31601250000.000 -6.4705220622E+000 +2.6420042334E+001 
